T09B4 12833:749 SEGGER J-Link V4.84c Log File (0001ms, 144889ms total)
T09B4 12833:749 DLL Compiled: Apr 16 2014 18:53:07 (0001ms, 144889ms total)
T09B4 12833:749 Logging started @ 2015-05-22 19:53 (0001ms, 144889ms total)
T09B4 12833:794 JLINK_ExecCommand("Device = ATSAMD20E15", ...)Device "ATSAMD20E15" selected (32 KB flash, 4 KB RAM).  returns 0x00 (0001ms, 144890ms total)
T09B4 12833:795 JLINK_GetFirmwareString(...) (0000ms, 144890ms total)
T09B4 12833:795 JLINK_GetHardwareVersion()  returns 0x13880 (0000ms, 144890ms total)
T09B4 12833:795 JLINK_GetDLLVersion()  returns 48403 (0000ms, 144890ms total)
T09B4 12833:798 JLINK_GetFirmwareString(...) (0001ms, 144891ms total)
T09B4 12833:799 JLINK_GetHardwareVersion()  returns 0x13880 (0000ms, 144891ms total)
T09B4 12833:799 JLINK_GetDLLVersion()  returns 48403 (0000ms, 144891ms total)
T09B4 12833:829 JLINK_ExecCommand("ProjectFile = C:\Users\Txai\Desktop\Control ID\Docs\Anatel-sw\leitorrf\jlink.config", ...)  returns 0x00 (0001ms, 144892ms total)
T09B4 12833:878 JLINK_ExecCommand("Device = ATSAMD20E15", ...)Device "ATSAMD20E15" selected (32 KB flash, 4 KB RAM).  returns 0x00 (0000ms, 144892ms total)
T09B4 12833:878 JLINK_TIF_Select(JLINKARM_TIF_SWD)  returns 0x00 (0001ms, 144893ms total)
T09B4 12833:879 JLINK_SetSpeed(4000) (0001ms, 144894ms total)
T09B4 12833:880 JLINK_Connect() >0x108 TIF>Found SWD-DP with ID 0x0BC11477 >0x0D TIF> >0x28 TIF> >0x0D TIF> >0x28 TIF> >0x0D TIF> >0x21 TIF> >0x0D TIF> >0x28 TIF> >0x0D TIF> >0x28 TIF> >0x0D TIF> >0x28 TIF> >0x0D TIF> >0x21 TIF> >0x0D TIF> >0x21 TIF> >0x0D TIF> >0x28 TIF> >0x0D TIF> >0x28 TIF> >0x0D TIF> >0x28 TIF> >0x0D TIF> >0x28 TIF> >0x0D TIF> >0x28 TIF> >0x0D TIF> >0x28 TIF> >0x0D TIF> >0x21 TIF> >0x0D TIF> >0x21 TIF> >0x0D TIF> >0x28 TIF> >0x0D TIF> >0x28 TIF> >0x108 TIF>
Found SWD-DP with ID 0x0BC11477 >0x0D TIF> >0x21 TIF> >0x0D TIF> >0x28 TIF> >0x0D TIF> >0x28 TIF> >0x0D TIF> >0x21 TIF> >0x0D TIF> >0x28 TIF> >0x0D TIF> >0x21 TIF> >0x0D TIF> >0x21 TIF> >0x0D TIF> >0x21 TIF> >0x0D TIF> >0x28 TIF> >0x0D TIF> >0x28 TIF> >0x0D TIF> >0x28 TIF> >0x0D TIF> >0x21 TIF> >0x0D TIF> >0x21 TIF> >0x0D TIF> >0x21 TIF> >0x0D TIF> >0x28 TIF> >0x0D TIF> >0x28 TIF> >0x0D TIF> >0x21 TIF> >0x0D TIF> >0x28 TIF> >0x0D TIF> >0x28 TIF> >0x0D TIF> >0x28 TIF> >0x0D TIF> >0x21 TIF> >0x0D TIF>
 >0x21 TIF> >0x0D TIF> >0x28 TIF> >0x0D TIF> >0x21 TIF> >0x0D TIF> >0x21 TIF>Found Cortex-M0 r0p1, Little endian. -- CPU_WriteMem(4 bytes @ 0xE0002000) -- CPU_ReadMem(4 bytes @ 0xE000EDF0) -- CPU_ReadMem(4 bytes @ 0xE0002000)FPUnit: 4 code (BP) slots and 0 literal slots -- CPU_ReadMem(4 bytes @ 0xE000EDFC) -- CPU_ReadMem(4 bytes @ 0xE0001000) -- CPU_WriteMem(4 bytes @ 0xE0001000) -- CPU_ReadMem(4 bytes @ 0xE00FF018)  returns 0x00 (0058ms, 144952ms total)
T09B4 12833:938 JLINK_GetDebugInfo(0x100) -- Value=0x41003003  returns 0x00 (0001ms, 144953ms total)
T09B4 12833:939 JLINK_ReadMemU8(0x41003FF0, 0x0001 Items, ...) -- CPU is running -- CPU_ReadMem(1 bytes @ 0x41003FF0) -- Data:  0D  returns 0x01 (0001ms, 144954ms total)
T09B4 12833:940 JLINK_ReadMemU8(0x41003FF4, 0x0001 Items, ...) -- CPU is running -- CPU_ReadMem(1 bytes @ 0x41003FF4) -- Data:  10  returns 0x01 (0001ms, 144955ms total)
T09B4 12833:941 JLINK_ReadMemU8(0x41003FF8, 0x0001 Items, ...) -- CPU is running -- CPU_ReadMem(1 bytes @ 0x41003FF8) -- Data:  05  returns 0x01 (0000ms, 144955ms total)
T09B4 12833:941 JLINK_ReadMemU8(0x41003FFC, 0x0001 Items, ...) -- CPU is running -- CPU_ReadMem(1 bytes @ 0x41003FFC) -- Data:  B1  returns 0x01 (0001ms, 144956ms total)
T09B4 12833:942 JLINK_ReadMemU8(0x41003FD0, 0x0001 Items, ...) -- CPU is running -- CPU_ReadMem(1 bytes @ 0x41003FD0) -- Data:  00  returns 0x01 (0001ms, 144957ms total)
T09B4 12833:943 JLINK_ReadMemU8(0x41003FD4, 0x0001 Items, ...) -- CPU is running -- CPU_ReadMem(1 bytes @ 0x41003FD4) -- Data:  00  returns 0x01 (0001ms, 144958ms total)
T09B4 12833:944 JLINK_ReadMemU8(0x41003FD8, 0x0001 Items, ...) -- CPU is running -- CPU_ReadMem(1 bytes @ 0x41003FD8) -- Data:  00  returns 0x01 (0001ms, 144959ms total)
T09B4 12833:945 JLINK_ReadMemU8(0x41003FDC, 0x0001 Items, ...) -- CPU is running -- CPU_ReadMem(1 bytes @ 0x41003FDC) -- Data:  00  returns 0x01 (0000ms, 144959ms total)
T09B4 12833:945 JLINK_ReadMemU8(0x41003FE0, 0x0001 Items, ...) -- CPU is running -- CPU_ReadMem(1 bytes @ 0x41003FE0) -- Data:  D0  returns 0x01 (0001ms, 144960ms total)
T09B4 12833:946 JLINK_ReadMemU8(0x41003FE4, 0x0001 Items, ...) -- CPU is running -- CPU_ReadMem(1 bytes @ 0x41003FE4) -- Data:  FC  returns 0x01 (0001ms, 144961ms total)
T09B4 12833:947 JLINK_ReadMemU8(0x41003FE8, 0x0001 Items, ...) -- CPU is running -- CPU_ReadMem(1 bytes @ 0x41003FE8) -- Data:  09  returns 0x01 (0000ms, 144961ms total)
T09B4 12833:947 JLINK_ReadMemU8(0x41003FEC, 0x0001 Items, ...) -- CPU is running -- CPU_ReadMem(1 bytes @ 0x41003FEC) -- Data:  00  returns 0x01 (0001ms, 144962ms total)
T09B4 12833:948 JLINK_ReadMemU32(0x41003000, 0x0001 Items, ...) -- CPU is running -- CPU_ReadMem(4 bytes @ 0x41003000) -- Data:  03 C0 0F 9F  returns 0x01 (0001ms, 144963ms total)
T09B4 12833:949 JLINK_ReadMemU8(0xE00FFFF0, 0x0001 Items, ...) -- CPU is running -- CPU_ReadMem(1 bytes @ 0xE00FFFF0) -- Data:  00  returns 0x01 (0000ms, 144963ms total)
T09B4 12833:949 JLINK_ReadMemU8(0xE00FFFF4, 0x0001 Items, ...) -- CPU is running -- CPU_ReadMem(1 bytes @ 0xE00FFFF4) -- Data:  00  returns 0x01 (0001ms, 144964ms total)
T09B4 12833:950 JLINK_ReadMemU8(0xE00FFFF8, 0x0001 Items, ...) -- CPU is running -- CPU_ReadMem(1 bytes @ 0xE00FFFF8) -- Data:  00  returns 0x01 (0001ms, 144965ms total)
T09B4 12833:951 JLINK_ReadMemU8(0xE00FFFFC, 0x0001 Items, ...) -- CPU is running -- CPU_ReadMem(1 bytes @ 0xE00FFFFC) -- Data:  00  returns 0x01 (0000ms, 144965ms total)
T09B4 12833:951 JLINK_ReadMemU8(0xE00FFFD0, 0x0001 Items, ...) -- CPU is running -- CPU_ReadMem(1 bytes @ 0xE00FFFD0) -- Data:  00  returns 0x01 (0001ms, 144966ms total)
T09B4 12833:952 JLINK_ReadMemU8(0xE00FFFD4, 0x0001 Items, ...) -- CPU is running -- CPU_ReadMem(1 bytes @ 0xE00FFFD4) -- Data:  00  returns 0x01 (0001ms, 144967ms total)
T09B4 12833:953 JLINK_ReadMemU8(0xE00FFFD8, 0x0001 Items, ...) -- CPU is running -- CPU_ReadMem(1 bytes @ 0xE00FFFD8) -- Data:  00  returns 0x01 (0000ms, 144967ms total)
T09B4 12833:953 JLINK_ReadMemU8(0xE00FFFDC, 0x0001 Items, ...) -- CPU is running -- CPU_ReadMem(1 bytes @ 0xE00FFFDC) -- Data:  00  returns 0x01 (0001ms, 144968ms total)
T09B4 12833:954 JLINK_ReadMemU8(0xE00FFFE0, 0x0001 Items, ...) -- CPU is running -- CPU_ReadMem(1 bytes @ 0xE00FFFE0) -- Data:  00  returns 0x01 (0000ms, 144968ms total)
T09B4 12833:954 JLINK_ReadMemU8(0xE00FFFE4, 0x0001 Items, ...) -- CPU is running -- CPU_ReadMem(1 bytes @ 0xE00FFFE4) -- Data:  00  returns 0x01 (0001ms, 144969ms total)
T09B4 12833:955 JLINK_ReadMemU8(0xE00FFFE8, 0x0001 Items, ...) -- CPU is running -- CPU_ReadMem(1 bytes @ 0xE00FFFE8) -- Data:  00  returns 0x01 (0001ms, 144970ms total)
T09B4 12833:956 JLINK_ReadMemU8(0xE00FFFEC, 0x0001 Items, ...) -- CPU is running -- CPU_ReadMem(1 bytes @ 0xE00FFFEC) -- Data:  00  returns 0x01 (0000ms, 144970ms total)
T09B4 12833:956 JLINK_ReadMemU32(0x41003004, 0x0001 Items, ...) -- CPU is running -- CPU_ReadMem(4 bytes @ 0x41003004) -- Data:  00 00 00 00  returns 0x01 (0001ms, 144971ms total)
T09B4 12833:957 JLINK_ReadMem (0x00000000, 0x0004 Bytes, ...) -- CPU is running -- CPU_ReadMem(4 bytes @ 0x00000000) -- Data:  A0 09 00 20  returns 0x00 (0001ms, 144972ms total)
T09B4 12833:958 JLINK_ReadMem (0x00000000, 0x0004 Bytes, ...) -- CPU is running -- CPU_ReadMem(4 bytes @ 0x00000000) -- Data:  A0 09 00 20  returns 0x00 (0000ms, 144972ms total)
T09B4 12833:958 JLINK_ReadMem (0x00000028, 0x0004 Bytes, ...) -- CPU is running -- CPU_ReadMem(4 bytes @ 0x00000028) -- Data:  00 00 00 00  returns 0x00 (0001ms, 144973ms total)
T09B4 12833:959 JLINK_WriteMem(0x00000028, 0x0004 Bytes, ...) -- Data:  00 01 00 00  returns 0x04 (0000ms, 144973ms total)
T09B4 12833:959 JLINK_ReadMem (0x00000028, 0x0004 Bytes, ...) -- Read from flash cache (4 bytes @ 0x00000028) -- Data:  00 01 00 00  returns 0x00 (0000ms, 144973ms total)
T09B4 12833:959 JLINK_ReadMem (0x00000038, 0x0004 Bytes, ...) -- CPU is running -- CPU_ReadMem(4 bytes @ 0x00000038) -- Data:  61 01 00 00  returns 0x00 (0001ms, 144974ms total)
T09B4 12833:960 JLINK_WriteMem(0x00000038, 0x0004 Bytes, ...) -- Data:  61 01 00 00  returns 0x04 (0000ms, 144974ms total)
T09B4 12833:960 JLINK_ReadMem (0x00000038, 0x0004 Bytes, ...) -- Read from flash cache (4 bytes @ 0x00000038) -- Data:  61 01 00 00  returns 0x00 (0000ms, 144974ms total)
T09B4 12833:960 JLINK_ReadMem (0x00000024, 0x0004 Bytes, ...) -- CPU is running -- CPU_ReadMem(4 bytes @ 0x00000024) -- Data:  00 00 00 00  returns 0x00 (0000ms, 144974ms total)
T09B4 12833:960 JLINK_WriteMem(0x00000024, 0x0004 Bytes, ...) -- Data:  1F 00 00 00  returns 0x04 (0000ms, 144974ms total)
T09B4 12833:960 JLINK_ReadMem (0x00000024, 0x0004 Bytes, ...) -- Read from flash cache (4 bytes @ 0x00000024) -- Data:  1F 00 00 00  returns 0x00 (0000ms, 144974ms total)
T09B4 12833:960 JLINK_ReadMem (0x00000034, 0x0004 Bytes, ...) -- CPU is running -- CPU_ReadMem(4 bytes @ 0x00000034) -- Data:  00 00 00 00  returns 0x00 (0001ms, 144975ms total)
T09B4 12833:961 JLINK_WriteMem(0x00000034, 0x0004 Bytes, ...) -- Data:  1F 00 00 00  returns 0x04 (0000ms, 144975ms total)
T09B4 12833:961 JLINK_ReadMem (0x00000034, 0x0004 Bytes, ...) -- Read from flash cache (4 bytes @ 0x00000034) -- Data:  1F 00 00 00  returns 0x00 (0000ms, 144975ms total)
T09B4 12833:961 JLINK_ReadMem (0x00000028, 0x0004 Bytes, ...) -- Read from flash cache (4 bytes @ 0x00000028) -- Data:  00 01 00 00  returns 0x00 (0000ms, 144975ms total)
T09B4 12833:961 JLINK_ReadMem (0x00000038, 0x0004 Bytes, ...) -- Read from flash cache (4 bytes @ 0x00000038) -- Data:  61 01 00 00  returns 0x00 (0000ms, 144975ms total)
T09B4 12833:961 JLINK_WriteMem(0x00000020, 0x0004 Bytes, ...) -- Data:  00 00 00 00  returns 0x04 (0000ms, 144975ms total)
T09B4 12833:961 JLINK_WriteMem(0x00000024, 0x0004 Bytes, ...) -- Data:  00 00 00 00  returns 0x04 (0000ms, 144975ms total)
T09B4 12833:961 JLINK_WriteMem(0x00000028, 0x0004 Bytes, ...) -- Data:  00 00 00 00  returns 0x04 (0001ms, 144976ms total)
T09B4 12833:962 JLINK_WriteMem(0x00000030, 0x0004 Bytes, ...) -- Data:  00 00 00 00  returns 0x04 (0000ms, 144976ms total)
T09B4 12833:962 JLINK_WriteMem(0x00000034, 0x0004 Bytes, ...) -- Data:  00 00 00 00  returns 0x04 (0000ms, 144976ms total)
T09B4 12833:962 JLINK_WriteMem(0x00000038, 0x0004 Bytes, ...) -- Data:  00 00 00 00  returns 0x04 (0000ms, 144976ms total)
T09B4 12833:962 JLINK_WriteVectorCatch(0x00000001) -- -------------------------------------- -- Start of determining dirty areas -- End of determining dirty areas -- Start of preparing flash programming -- Calculating RAM usage -- RAM usage = 2236 Bytes -- Preserving registers -- Preparing memory -- Determining CPU clock frequency -- CPU clock frequency: 1326 kHz -- CPU frequency = 1326 kHz -- Preparing target -- Downloading RAMCode -- Using alternate TurboMode RAMCode -- Checking target RAM
 -- Preparing RAMCode -- End of preparing flash programmingCPU is running at very low speed (1326 kHz). Readback will be performed instead of CRC calculation. -- CPU is running at 1326 kHz. -- Start of comparing flash -- Read back was estimated as fastest method -- Comparing range 0x0000 - 0x00FF (1 Sector, 256 Bytes), using multi-block CRC calculation -- CPU is running -- CPU_ReadMem(256 bytes @ 0x00000000) -- CRC does not match for sector 0 -- End of comparing flash -- Start of erasing sectors
 -- Erasing range 0x00000000 - 0x000000FF (  1 Sector, 256 Bytes) -- End of erasing sectors -- Start of flash programming -- Programming range 0x00000000 - 0x000000FF (  1 Sector, 256 Bytes) -- End of flash programming -- Flash programming performed for 1 range (256 bytes) -- 0x0000 - 0x00FF (001 Sector, 256 Bytes) -- Start of verifying flash -- Checksum calculation was estimated as fastest method -- End of verifying flash -- Start of restoring -- Restore RAMCode -- Restore content of target memory
 -- Restore target -- Restore memory -- Restore content of registers -- End of restoring -- Total time needed: 0.114s (Prepare: 0.092s, Compare: 0.002s, Erase: 0.011s, Program: 0.001s, Verify: 0.000s, Restore: 0.005s) -- CPU_ReadMem(4 bytes @ 0xE000EDFC) -- CPU_WriteMem(4 bytes @ 0xE000EDFC)  returns 0x00 (0122ms, 145098ms total)
T09B4 12834:084 JLINK_Reset() -- CPU_ReadMem(4 bytes @ 0x2000064C) -- CPU_WriteMem(4 bytes @ 0x2000064C) -- CPU_WriteMem(4 bytes @ 0xE000ED0C) -- CPU is running -- CPU_ReadMem(4 bytes @ 0xE000EDF0) -- CPU is running -- CPU_ReadMem(4 bytes @ 0xE000EDFC) -- CPU is running -- CPU_WriteMem(4 bytes @ 0xE000EDFC) -- CPU is running -- CPU_WriteMem(4 bytes @ 0x41002100) -- CPU is running -- CPU_ReadMem(4 bytes @ 0x41002100) -- CPU is running -- CPU_ReadMem(4 bytes @ 0xE000EDFC) -- CPU is running
 -- CPU_WriteMem(4 bytes @ 0xE000EDFC) -- CPU_WriteMem(4 bytes @ 0xE0002000) -- CPU_ReadMem(4 bytes @ 0xE000EDFC) -- CPU_ReadMem(4 bytes @ 0xE0001000) -- CPU_WriteMem(4 bytes @ 0xE0001000) (0016ms, 145114ms total)
T09B4 12834:101 JLINK_JTAG_GetDeviceID(DeviceIndex = 0)  returns 0x00 (0000ms, 145114ms total)
T09B4 12834:101 JLINK_ReadMemU32(0x41002018, 0x0001 Items, ...) -- CPU_ReadMem(4 bytes @ 0x41002018) -- Data:  0D 12 00 10  returns 0x01 (0001ms, 145115ms total)
T09B4 12834:107 JLINK_ReadMemHW(0x00001700, 0x0100 Bytes, ...) -- CPU_ReadMem(256 bytes @ 0x00001700) -- Data:  01 00 00 00 01 00 00 00 00 00 00 00 01 00 00 00 ...  returns 0x00 (0003ms, 145118ms total)
T09B4 12834:110 JLINK_ReadMemHW(0x00001B00, 0x0100 Bytes, ...) -- CPU_ReadMem(256 bytes @ 0x00001B00) -- Data:  00 00 00 00 00 00 00 00 00 00 00 00 00 00 00 00 ...  returns 0x00 (0003ms, 145121ms total)
T09B4 12834:124 JLINK_BeginDownload(Flags = 0x00) (0000ms, 145121ms total)
T09B4 12834:124 JLINK_WriteMem(0x00000000, 0x0100 Bytes, ...) -- Data:  A0 09 00 20 65 01 00 00 61 01 00 00 61 01 00 00 ...  returns 0x100 (0000ms, 145121ms total)
T09B4 12834:124 JLINK_WriteMem(0x00000100, 0x0100 Bytes, ...) -- Data:  09 D1 FF F7 CF FF 05 4B 00 2B 02 D0 04 48 00 E0 ...  returns 0x100 (0000ms, 145121ms total)
T09B4 12834:124 JLINK_WriteMem(0x00000200, 0x0100 Bytes, ...) -- Data:  FA 20 40 00 A0 47 03 4B 98 47 10 BD 35 10 00 00 ...  returns 0x100 (0000ms, 145121ms total)
T09B4 12834:124 JLINK_WriteMem(0x00000300, 0x0100 Bytes, ...) -- Data:  17 33 00 93 26 20 05 A9 03 AA 23 1C 08 4C A0 47 ...  returns 0x100 (0001ms, 145122ms total)
T09B4 12834:125 JLINK_WriteMem(0x00000400, 0x0100 Bytes, ...) -- Data:  A8 47 E1 B2 2D 20 A8 47 24 0A E1 B2 2C 20 A8 47 ...  returns 0x100 (0000ms, 145122ms total)
T09B4 12834:125 JLINK_WriteMem(0x00000500, 0x0100 Bytes, ...) -- Data:  CD 03 00 00 10 B5 04 1C 01 20 0F 21 03 4B 98 47 ...  returns 0x100 (0000ms, 145122ms total)
T09B4 12834:125 JLINK_WriteMem(0x00000600, 0x0100 Bytes, ...) -- Data:  01 1C 99 43 0D 43 E9 B2 01 20 69 4B 98 47 08 E0 ...  returns 0x100 (0000ms, 145122ms total)
T09B4 12834:125 JLINK_WriteMem(0x00000700, 0x0100 Bytes, ...) -- Data:  D9 88 00 29 03 D0 00 2A 01 D0 01 3A 1A 71 04 20 ...  returns 0x100 (0001ms, 145123ms total)
T09B4 12834:126 JLINK_WriteMem(0x00000800, 0x0100 Bytes, ...) -- Data:  63 70 A3 70 23 71 E3 80 23 72 18 4D 2B 68 1E 70 ...  returns 0x100 (0000ms, 145123ms total)
T09B4 12834:126 JLINK_WriteMem(0x00000900, 0x0100 Bytes, ...) -- Data:  DA B2 94 42 F7 D8 4A 46 11 01 11 43 0D 20 49 4B ...  returns 0x100 (0000ms, 145123ms total)
T09B4 12834:126 JLINK_WriteMem(0x00000A00, 0x0100 Bytes, ...) -- Data:  20 2F 00 D8 61 E7 02 23 FF 33 02 93 0D 20 00 21 ...  returns 0x100 (0000ms, 145123ms total)
T09B4 12834:126 JLINK_WriteMem(0x00000B00, 0x0100 Bytes, ...) -- Data:  0C 1C 16 4B 98 47 16 4A 13 69 19 04 FC D4 50 22 ...  returns 0x100 (0000ms, 145123ms total)
T09B4 12834:126 JLINK_WriteMem(0x00000C00, 0x0100 Bytes, ...) -- Data:  70 B5 04 1C 0E 1C 15 1C 06 4B 98 47 00 2E 02 D0 ...  returns 0x100 (0000ms, 145123ms total)
T09B4 12834:126 JLINK_WriteMem(0x00000D00, 0x0100 Bytes, ...) -- Data:  40 46 03 5D 2B 60 00 23 6B 60 8C 4B 1B 7A 01 2B ...  returns 0x100 (0000ms, 145123ms total)
T09B4 12834:126 JLINK_WriteMem(0x00000E00, 0x0100 Bytes, ...) -- Data:  02 43 0A 62 4B 62 4D 4B 03 22 1A 72 9A 6A 01 32 ...  returns 0x100 (0000ms, 145123ms total)
T09B4 12834:126 JLINK_WriteMem(0x00000F00, 0x0100 Bytes, ...) -- Data:  00 22 0E 4B 1A 72 0D 4B 1E 68 5F 68 1E 61 5F 61 ...  returns 0x100 (0000ms, 145123ms total)
T09B4 12834:126 JLINK_WriteMem(0x00001000, 0x0100 Bytes, ...) -- Data:  7D 10 00 00 9D 04 00 20 9A 04 00 20 9C 04 00 20 ...  returns 0x100 (0000ms, 145123ms total)
T09B4 12834:126 JLINK_WriteMem(0x00001100, 0x0100 Bytes, ...) -- Data:  0A 43 9A 61 01 22 39 4B 1A 70 19 1C 0B 68 13 42 ...  returns 0x100 (0000ms, 145123ms total)
T09B4 12834:126 JLINK_WriteMem(0x00001200, 0x0100 Bytes, ...) -- Data:  02 0C 00 40 14 4B 47 22 98 5C 01 21 01 43 99 54 ...  returns 0x100 (0001ms, 145124ms total)
T09B4 12834:127 JLINK_WriteMem(0x00001300, 0x0100 Bytes, ...) -- Data:  00 44 00 41 06 4B 00 22 44 21 5A 54 10 21 99 60 ...  returns 0x100 (0000ms, 145124ms total)
T09B4 12834:127 JLINK_WriteMem(0x00001400, 0x0100 Bytes, ...) -- Data:  BD 12 00 00 D1 12 00 00 F8 B5 12 20 0C 4C A0 47 ...  returns 0x100 (0000ms, 145124ms total)
T09B4 12834:127 JLINK_WriteMem(0x00001500, 0x0100 Bytes, ...) -- Data:  CC 08 A0 42 02 D3 00 1B DC 08 22 43 00 28 03 D0 ...  returns 0x100 (0000ms, 145124ms total)
T09B4 12834:127 JLINK_WriteMem(0x00001600, 0x0100 Bytes, ...) -- Data:  A6 22 52 00 98 18 E0 64 43 68 1F 2B 16 DD 1C 4B ...  returns 0x100 (0000ms, 145124ms total)
T09B4 12834:127 JLINK_WriteMem(0x00001700, 0x0100 Bytes, ...) -- Data:  01 00 00 00 01 00 00 00 00 00 00 00 01 00 00 00 ...  returns 0x100 (0000ms, 145124ms total)
T09B4 12834:127 JLINK_WriteMem(0x00001800, 0x0100 Bytes, ...) -- Data:  00 00 00 00 00 00 00 00 00 00 00 00 00 00 00 00 ...  returns 0x100 (0000ms, 145124ms total)
T09B4 12834:127 JLINK_WriteMem(0x00001900, 0x0100 Bytes, ...) -- Data:  00 00 00 00 00 00 00 00 00 00 00 00 00 00 00 00 ...  returns 0x100 (0000ms, 145124ms total)
T09B4 12834:127 JLINK_WriteMem(0x00001A00, 0x0100 Bytes, ...) -- Data:  00 00 00 00 00 00 00 00 00 00 00 00 00 00 00 00 ...  returns 0x100 (0000ms, 145124ms total)
T09B4 12834:127 JLINK_WriteMem(0x00001B00, 0x0100 Bytes, ...) -- Data:  00 00 00 00 00 00 00 00 00 00 00 00 00 00 00 00 ...  returns 0x100 (0000ms, 145124ms total)
T09B4 12834:274 JLINK_EndDownload() -- -------------------------------------- -- Start of determining dirty areas -- End of determining dirty areas -- Start of preparing flash programming -- Calculating RAM usage -- RAM usage = 2748 Bytes -- Preserving registers -- Preparing memory -- Determining CPU clock frequency -- CPU clock frequency: 1326 kHz -- CPU frequency = 1326 kHz -- Preparing target -- Preserving target memory used for RAMCode and buffer -- Downloading RAMCode -- Preparing RAMCode
 -- End of preparing flash programmingCPU is running at very low speed (1326 kHz). Readback will be performed instead of CRC calculation. -- CPU is running at 1326 kHz. -- Start of comparing flash -- Read back was estimated as fastest method -- Comparing range 0x0000 - 0x0FFF (16 Sectors, 4 KB), using multi-block CRC calculation -- CPU is running -- CPU_ReadMem(256 bytes @ 0x00000000) -- CPU is running -- CPU_ReadMem(256 bytes @ 0x00000100) -- CPU is running -- CPU_ReadMem(256 bytes @ 0x00000200)
 -- CPU is running -- CPU_ReadMem(256 bytes @ 0x00000300) -- CPU is running -- CPU_ReadMem(256 bytes @ 0x00000400) -- CPU is running -- CPU_ReadMem(256 bytes @ 0x00000500) -- CPU is running -- CPU_ReadMem(256 bytes @ 0x00000600) -- CPU is running -- CPU_ReadMem(256 bytes @ 0x00000700) -- CPU is running -- CPU_ReadMem(256 bytes @ 0x00000800) -- CPU is running -- CPU_ReadMem(256 bytes @ 0x00000900) -- CPU is running -- CPU_ReadMem(256 bytes @ 0x00000A00) -- CPU is running
 -- CPU_ReadMem(256 bytes @ 0x00000B00) -- CPU is running -- CPU_ReadMem(256 bytes @ 0x00000C00) -- CPU is running -- CPU_ReadMem(256 bytes @ 0x00000D00) -- CPU is running -- CPU_ReadMem(256 bytes @ 0x00000E00) -- CPU is running -- CPU_ReadMem(256 bytes @ 0x00000F00) -- CRC does not match for sector 0 -- Comparing range 0x1000 - 0x1BFF (12 Sectors, 3 KB), using multi-block CRC calculation -- CPU is running -- CPU_ReadMem(256 bytes @ 0x00001000) -- CPU is running -- CPU_ReadMem(256 bytes @ 0x00001100)
 -- CPU is running -- CPU_ReadMem(256 bytes @ 0x00001200) -- CPU is running -- CPU_ReadMem(256 bytes @ 0x00001300) -- CPU is running -- CPU_ReadMem(256 bytes @ 0x00001400) -- CPU is running -- CPU_ReadMem(256 bytes @ 0x00001500) -- CPU is running -- CPU_ReadMem(256 bytes @ 0x00001600) -- CPU is running -- CPU_ReadMem(256 bytes @ 0x00001700) -- CPU is running -- CPU_ReadMem(256 bytes @ 0x00001800) -- CPU is running -- CPU_ReadMem(256 bytes @ 0x00001900) -- CPU is running
 -- CPU_ReadMem(256 bytes @ 0x00001A00) -- CPU is running -- CPU_ReadMem(256 bytes @ 0x00001B00) -- All CRCs match -- Comparing range 0x0100 - 0x10FF (16 Sectors, 4 KB), using alternative multi-block CRC calculation -- CPU is running -- CPU_ReadMem(256 bytes @ 0x00000100) -- CPU is running -- CPU_ReadMem(256 bytes @ 0x00000200) -- CPU is running -- CPU_ReadMem(256 bytes @ 0x00000300) -- CPU is running -- CPU_ReadMem(256 bytes @ 0x00000400) -- CPU is running -- CPU_ReadMem(256 bytes @ 0x00000500)
 -- CPU is running -- CPU_ReadMem(256 bytes @ 0x00000600) -- CPU is running -- CPU_ReadMem(256 bytes @ 0x00000700) -- CPU is running -- CPU_ReadMem(256 bytes @ 0x00000800) -- CPU is running -- CPU_ReadMem(256 bytes @ 0x00000900) -- CPU is running -- CPU_ReadMem(256 bytes @ 0x00000A00) -- CPU is running -- CPU_ReadMem(256 bytes @ 0x00000B00) -- CPU is running -- CPU_ReadMem(256 bytes @ 0x00000C00) -- CPU is running -- CPU_ReadMem(256 bytes @ 0x00000D00) -- CPU is running
 -- CPU_ReadMem(256 bytes @ 0x00000E00) -- CPU is running -- CPU_ReadMem(256 bytes @ 0x00000F00) -- CPU is running -- CPU_ReadMem(256 bytes @ 0x00001000) -- All CRCs match -- Comparing range 0x1100 - 0x1BFF (11 Sectors, 2 KB), using alternative multi-block CRC calculation -- CPU is running -- CPU_ReadMem(256 bytes @ 0x00001100) -- CPU is running -- CPU_ReadMem(256 bytes @ 0x00001200) -- CPU is running -- CPU_ReadMem(256 bytes @ 0x00001300) -- CPU is running -- CPU_ReadMem(256 bytes @ 0x00001400)
 -- CPU is running -- CPU_ReadMem(256 bytes @ 0x00001500) -- CPU is running -- CPU_ReadMem(256 bytes @ 0x00001600) -- CPU is running -- CPU_ReadMem(256 bytes @ 0x00001700) -- CPU is running -- CPU_ReadMem(256 bytes @ 0x00001800) -- CPU is running -- CPU_ReadMem(256 bytes @ 0x00001900) -- CPU is running -- CPU_ReadMem(256 bytes @ 0x00001A00) -- CPU is running -- CPU_ReadMem(256 bytes @ 0x00001B00) -- All CRCs match -- End of comparing flash -- Start of erasing sectors
 -- Erasing range 0x00000000 - 0x000000FF (  1 Sector, 256 Bytes) -- End of erasing sectors -- Start of flash programming -- Programming range 0x00000000 - 0x000000FF (  1 Sector, 256 Bytes) -- End of flash programming -- Flash programming performed for 1 range (256 bytes) -- 0x0000 - 0x00FF (001 Sector, 256 Bytes) -- Start of verifying flash -- Checksum calculation was estimated as fastest method -- End of verifying flash -- Start of restoring -- Restore RAMCode -- Restore content of target memory
 -- Restore target -- Restore memory -- Restore content of registers -- End of restoring -- Total time needed: 0.284s (Prepare: 0.092s, Compare: 0.153s, Erase: 0.007s, Program: 0.002s, Verify: 0.000s, Restore: 0.028s)  returns 0x100 (0286ms, 145410ms total)
T09B4 12834:560 JLINK_JTAG_GetDeviceID(DeviceIndex = 0)  returns 0x00 (0001ms, 145411ms total)
T09B4 12834:561 JLINK_ReadMemU32(0x41002018, 0x0001 Items, ...) -- CPU_ReadMem(4 bytes @ 0x41002018) -- Data:  0D 12 00 10  returns 0x01 (0003ms, 145414ms total)
T0D60 12834:683 JLINK_ReadReg(R15 (PC))  returns 0xFFFFFFFE (0001ms, 145415ms total)
T0D60 12834:684 JLINK_WriteVectorCatch(0x00000001) -- CPU_ReadMem(4 bytes @ 0xE000EDFC) -- CPU_WriteMem(4 bytes @ 0xE000EDFC)  returns 0x00 (0001ms, 145416ms total)
T0D60 12834:685 JLINK_Reset() -- CPU_ReadMem(4 bytes @ 0x20000000) -- CPU_WriteMem(4 bytes @ 0x20000000) -- CPU_WriteMem(4 bytes @ 0xE000ED0C) -- CPU is running -- CPU_ReadMem(4 bytes @ 0xE000EDF0) -- CPU is running -- CPU_ReadMem(4 bytes @ 0xE000EDFC) -- CPU is running -- CPU_WriteMem(4 bytes @ 0xE000EDFC) -- CPU is running -- CPU_WriteMem(4 bytes @ 0x41002100) -- CPU is running -- CPU_ReadMem(4 bytes @ 0x41002100) -- CPU is running -- CPU_ReadMem(4 bytes @ 0xE000EDFC) -- CPU is running
 -- CPU_WriteMem(4 bytes @ 0xE000EDFC) -- CPU_WriteMem(4 bytes @ 0xE0002000) -- CPU_ReadMem(4 bytes @ 0xE000EDFC) -- CPU_ReadMem(4 bytes @ 0xE0001000) -- CPU_WriteMem(4 bytes @ 0xE0001000) (0015ms, 145431ms total)
T100C 12834:701 JLINK_IsHalted()  returns TRUE (0000ms, 145431ms total)
T100C 12834:701 JLINK_GetMOEs(...) -- CPU_ReadMem(4 bytes @ 0xE000ED30) -- CPU_WriteMem(4 bytes @ 0xE000ED30)  returns 0x01 (0001ms, 145432ms total)
T100C 12834:702 JLINK_ReadReg(R15 (PC))  returns 0x00000164 (0000ms, 145432ms total)
T0D60 12834:720 JLINK_ReadReg(R15 (PC))  returns 0x00000164 (0000ms, 145432ms total)
T0D60 12834:720 JLINK_ReadReg(R13 (SP))  returns 0x200009A0 (0000ms, 145432ms total)
T0D60 12834:722 JLINK_ReadReg(R0)  returns 0x2000062C (0000ms, 145432ms total)
T0D60 12834:722 JLINK_ReadReg(R1)  returns 0x41004004 (0001ms, 145433ms total)
T0D60 12834:723 JLINK_ReadReg(R2)  returns 0x2000064C (0000ms, 145433ms total)
T0D60 12834:723 JLINK_ReadReg(R3)  returns 0xAE2CBE88 (0000ms, 145433ms total)
T0D60 12834:723 JLINK_ReadReg(R4)  returns 0x2000062C (0000ms, 145433ms total)
T0D60 12834:723 JLINK_ReadReg(R5)  returns 0x20000684 (0000ms, 145433ms total)
T0D60 12834:723 JLINK_ReadReg(R6)  returns 0x20000684 (0000ms, 145433ms total)
T0D60 12834:723 JLINK_ReadReg(R7)  returns 0x00000000 (0000ms, 145433ms total)
T0D60 12834:723 JLINK_ReadReg(R8)  returns 0x00000B69 (0000ms, 145433ms total)
T0D60 12834:723 JLINK_ReadReg(R9)  returns 0x7DFFEFFF (0000ms, 145433ms total)
T0D60 12834:723 JLINK_ReadReg(R10)  returns 0xCFFFFFFB (0000ms, 145433ms total)
T0D60 12834:723 JLINK_ReadReg(R11)  returns 0x679FFEFD (0000ms, 145433ms total)
T0D60 12834:723 JLINK_ReadReg(R12)  returns 0x0000FFFF (0000ms, 145433ms total)
T0D60 12834:723 JLINK_ReadReg(R13 (SP))  returns 0x200009A0 (0000ms, 145433ms total)
T0D60 12834:723 JLINK_ReadReg(R14)  returns 0x2000037D (0000ms, 145433ms total)
T0D60 12834:723 JLINK_ReadReg(R15 (PC))  returns 0x00000164 (0000ms, 145433ms total)
T0D60 12834:723 JLINK_ReadReg(XPSR)  returns 0x21000000 (0000ms, 145433ms total)
T0D60 12834:723 JLINK_ReadReg(MSP)  returns 0x200009A0 (0000ms, 145433ms total)
T0D60 12834:723 JLINK_ReadReg(PSP)  returns 0xBFFBBF70 (0000ms, 145433ms total)
T0D60 12834:723 JLINK_ReadReg(APSR)  returns 0x20000000 (0000ms, 145433ms total)
T0D60 12834:723 JLINK_ReadReg(EPSR)  returns 0x01000000 (0000ms, 145433ms total)
T0D60 12834:723 JLINK_ReadReg(IPSR)  returns 0x00000000 (0000ms, 145433ms total)
T0D60 12834:723 JLINK_ReadReg(PRIMASK)  returns 0x00000000 (0000ms, 145433ms total)
T0D60 12834:723 JLINK_ReadReg(BASEPRI)  returns 0x00000000 (0000ms, 145433ms total)
T0D60 12834:723 JLINK_ReadReg(FAULTMASK)  returns 0x00000000 (0000ms, 145433ms total)
T0D60 12834:723 JLINK_ReadReg(CONTROL)  returns 0x00000000 (0000ms, 145433ms total)
T0D60 12834:748 JLINK_ReadReg(R0)  returns 0x2000062C (0000ms, 145433ms total)
T0D60 12834:748 JLINK_ReadReg(R1)  returns 0x41004004 (0000ms, 145433ms total)
T0D60 12834:748 JLINK_ReadReg(R2)  returns 0x2000064C (0000ms, 145433ms total)
T0D60 12834:748 JLINK_ReadReg(R3)  returns 0xAE2CBE88 (0000ms, 145433ms total)
T0D60 12834:748 JLINK_ReadReg(R4)  returns 0x2000062C (0000ms, 145433ms total)
T0D60 12834:748 JLINK_ReadReg(R5)  returns 0x20000684 (0000ms, 145433ms total)
T0D60 12834:748 JLINK_ReadReg(R6)  returns 0x20000684 (0000ms, 145433ms total)
T0D60 12834:748 JLINK_ReadReg(R7)  returns 0x00000000 (0000ms, 145433ms total)
T0D60 12834:748 JLINK_ReadReg(R8)  returns 0x00000B69 (0000ms, 145433ms total)
T0D60 12834:748 JLINK_ReadReg(R9)  returns 0x7DFFEFFF (0000ms, 145433ms total)
T0D60 12834:748 JLINK_ReadReg(R10)  returns 0xCFFFFFFB (0000ms, 145433ms total)
T0D60 12834:748 JLINK_ReadReg(R11)  returns 0x679FFEFD (0000ms, 145433ms total)
T0D60 12834:748 JLINK_ReadReg(R12)  returns 0x0000FFFF (0000ms, 145433ms total)
T0D60 12834:748 JLINK_ReadReg(R13 (SP))  returns 0x200009A0 (0000ms, 145433ms total)
T0D60 12834:748 JLINK_ReadReg(R14)  returns 0x2000037D (0000ms, 145433ms total)
T0D60 12834:748 JLINK_ReadReg(R15 (PC))  returns 0x00000164 (0000ms, 145433ms total)
T0D60 12834:748 JLINK_ReadReg(XPSR)  returns 0x21000000 (0000ms, 145433ms total)
T0D60 12834:748 JLINK_ReadReg(MSP)  returns 0x200009A0 (0000ms, 145433ms total)
T0D60 12834:748 JLINK_ReadReg(PSP)  returns 0xBFFBBF70 (0000ms, 145433ms total)
T0D60 12834:748 JLINK_ReadReg(APSR)  returns 0x20000000 (0000ms, 145433ms total)
T0D60 12834:748 JLINK_ReadReg(EPSR)  returns 0x01000000 (0001ms, 145434ms total)
T0D60 12834:749 JLINK_ReadReg(IPSR)  returns 0x00000000 (0000ms, 145434ms total)
T0D60 12834:749 JLINK_ReadReg(PRIMASK)  returns 0x00000000 (0000ms, 145434ms total)
T0D60 12834:749 JLINK_ReadReg(BASEPRI)  returns 0x00000000 (0000ms, 145434ms total)
T0D60 12834:749 JLINK_ReadReg(FAULTMASK)  returns 0x00000000 (0000ms, 145434ms total)
T0D60 12834:749 JLINK_ReadReg(CONTROL)  returns 0x00000000 (0000ms, 145434ms total)
T0D60 12834:779 JLINK_ReadReg(R15 (PC))  returns 0x00000164 (0000ms, 145434ms total)
T0D60 12834:780 JLINK_WriteVectorCatch(0x00000001) -- CPU_ReadMem(4 bytes @ 0xE000EDFC) -- CPU_WriteMem(4 bytes @ 0xE000EDFC)  returns 0x00 (0002ms, 145436ms total)
T0D60 12834:782 JLINK_Reset() -- CPU_WriteMem(4 bytes @ 0xE000ED0C) -- CPU is running -- CPU_ReadMem(4 bytes @ 0xE000EDF0) -- CPU is running -- CPU_ReadMem(4 bytes @ 0xE000EDFC) -- CPU is running -- CPU_WriteMem(4 bytes @ 0xE000EDFC) -- CPU is running -- CPU_WriteMem(4 bytes @ 0x41002100) -- CPU is running -- CPU_ReadMem(4 bytes @ 0x41002100) -- CPU is running -- CPU_ReadMem(4 bytes @ 0xE000EDFC) -- CPU is running -- CPU_WriteMem(4 bytes @ 0xE000EDFC) -- CPU_WriteMem(4 bytes @ 0xE0002000)
 -- CPU_ReadMem(4 bytes @ 0xE000EDFC) -- CPU_ReadMem(4 bytes @ 0xE0001000) -- CPU_WriteMem(4 bytes @ 0xE0001000) (0016ms, 145452ms total)
T100C 12834:823 JLINK_IsHalted()  returns TRUE (0000ms, 145452ms total)
T100C 12834:823 JLINK_GetMOEs(...)  returns 0x01 (0000ms, 145452ms total)
T100C 12834:823 JLINK_ReadReg(R15 (PC))  returns 0x00000164 (0000ms, 145452ms total)
T0D60 12834:828 JLINK_ReadReg(R15 (PC))  returns 0x00000164 (0000ms, 145452ms total)
T0D60 12834:828 JLINK_ReadReg(R13 (SP))  returns 0x200009A0 (0000ms, 145452ms total)
T0D60 12834:840 JLINK_ReadReg(R0)  returns 0x2000062C (0000ms, 145452ms total)
T0D60 12834:840 JLINK_ReadReg(R1)  returns 0x41004004 (0000ms, 145452ms total)
T0D60 12834:840 JLINK_ReadReg(R2)  returns 0x2000064C (0000ms, 145452ms total)
T0D60 12834:840 JLINK_ReadReg(R3)  returns 0xAE2CBE88 (0000ms, 145452ms total)
T0D60 12834:840 JLINK_ReadReg(R4)  returns 0x2000062C (0000ms, 145452ms total)
T0D60 12834:840 JLINK_ReadReg(R5)  returns 0x20000684 (0000ms, 145452ms total)
T0D60 12834:840 JLINK_ReadReg(R6)  returns 0x20000684 (0000ms, 145452ms total)
T0D60 12834:840 JLINK_ReadReg(R7)  returns 0x00000000 (0000ms, 145452ms total)
T0D60 12834:841 JLINK_ReadReg(R8)  returns 0x00000B69 (0000ms, 145453ms total)
T0D60 12834:841 JLINK_ReadReg(R9)  returns 0x7DFFEFFF (0000ms, 145453ms total)
T0D60 12834:841 JLINK_ReadReg(R10)  returns 0xCFFFFFFB (0000ms, 145453ms total)
T0D60 12834:841 JLINK_ReadReg(R11)  returns 0x679FFEFD (0000ms, 145453ms total)
T0D60 12834:841 JLINK_ReadReg(R12)  returns 0x0000FFFF (0000ms, 145453ms total)
T0D60 12834:841 JLINK_ReadReg(R13 (SP))  returns 0x200009A0 (0000ms, 145453ms total)
T0D60 12834:841 JLINK_ReadReg(R14)  returns 0x2000037D (0000ms, 145453ms total)
T0D60 12834:841 JLINK_ReadReg(R15 (PC))  returns 0x00000164 (0000ms, 145453ms total)
T0D60 12834:841 JLINK_ReadReg(XPSR)  returns 0x21000000 (0000ms, 145453ms total)
T0D60 12834:841 JLINK_ReadReg(MSP)  returns 0x200009A0 (0000ms, 145453ms total)
T0D60 12834:841 JLINK_ReadReg(PSP)  returns 0xBFFBBF70 (0000ms, 145453ms total)
T0D60 12834:841 JLINK_ReadReg(APSR)  returns 0x20000000 (0000ms, 145453ms total)
T0D60 12834:841 JLINK_ReadReg(EPSR)  returns 0x01000000 (0000ms, 145453ms total)
T0D60 12834:841 JLINK_ReadReg(IPSR)  returns 0x00000000 (0000ms, 145453ms total)
T0D60 12834:841 JLINK_ReadReg(PRIMASK)  returns 0x00000000 (0000ms, 145453ms total)
T0D60 12834:841 JLINK_ReadReg(BASEPRI)  returns 0x00000000 (0000ms, 145453ms total)
T0D60 12834:841 JLINK_ReadReg(FAULTMASK)  returns 0x00000000 (0000ms, 145453ms total)
T0D60 12834:841 JLINK_ReadReg(CONTROL)  returns 0x00000000 (0000ms, 145453ms total)
T0D60 12834:842 JLINK_ReadMem (0x2000037C, 0x0004 Bytes, ...) -- CPU_ReadMem(64 bytes @ 0x20000340) -- Updating C cache (64 bytes @ 0x20000340) -- Read from C cache (4 bytes @ 0x2000037C) -- Data:  F0 6A 00 28  returns 0x00 (0002ms, 145455ms total)
T0D60 12834:844 JLINK_ReadMem (0x20000018, 0x0002 Bytes, ...) -- CPU_ReadMem(64 bytes @ 0x20000000) -- Updating C cache (64 bytes @ 0x20000000) -- Read from C cache (2 bytes @ 0x20000018) -- Data:  52 08  returns 0x00 (0002ms, 145457ms total)
T0D60 12834:846 JLINK_ReadMem (0x2000001A, 0x0002 Bytes, ...) -- Read from C cache (2 bytes @ 0x2000001A) -- Data:  00 D3  returns 0x00 (0000ms, 145457ms total)
T0D60 12834:847 JLINK_ReadMem (0x2000037C, 0x0004 Bytes, ...) -- Read from C cache (4 bytes @ 0x2000037C) -- Data:  F0 6A 00 28  returns 0x00 (0000ms, 145457ms total)
T0D60 12834:847 JLINK_ReadMem (0x20000018, 0x0002 Bytes, ...) -- Read from C cache (2 bytes @ 0x20000018) -- Data:  52 08  returns 0x00 (0000ms, 145457ms total)
T0D60 12834:847 JLINK_ReadMem (0x2000001A, 0x0002 Bytes, ...) -- Read from C cache (2 bytes @ 0x2000001A) -- Data:  00 D3  returns 0x00 (0001ms, 145458ms total)
T09B4 12835:223 JLINK_GetNumBPUnits(Type = 0xFFFFFF02)  returns 0x04 (0001ms, 145459ms total)
T09B4 12835:224 JLINK_SetBPEx(Addr = 0x00000E16, Type = 0xFFFFFFF2)  returns 0x00000001 (0000ms, 145459ms total)
T09B4 12835:224 JLINK_GetBPInfo(BPHandle = 1)  returns 0x00 (0000ms, 145459ms total)
T0D60 12835:242 JLINK_ReadReg(R15 (PC))  returns 0x00000164 (0000ms, 145459ms total)
T0D60 12835:242 JLINK_SetBPEx(Addr = 0x00001444, Type = 0xFFFFFF02)  returns 0x00000002 (0000ms, 145459ms total)
T0D60 12835:242 JLINK_GetBPInfo(BPHandle = 2)  returns 0x00 (0000ms, 145459ms total)
T0D60 12835:242 JLINK_Go() -- CPU_WriteMem(4 bytes @ 0xE0002000) -- CPU_WriteMem(4 bytes @ 0xE0002000) -- CPU_WriteMem(4 bytes @ 0xE0002008) -- CPU_WriteMem(4 bytes @ 0xE000200C) -- CPU_WriteMem(4 bytes @ 0xE0002010) -- CPU_WriteMem(4 bytes @ 0xE0002014) -- CPU_WriteMem(4 bytes @ 0xE0001004) (0006ms, 145465ms total)
T100C 12835:263 JLINK_IsHalted()  returns TRUE (0003ms, 145468ms total)
T100C 12835:266 JLINK_GetMOEs(...) -- CPU_ReadMem(4 bytes @ 0xE000ED30) -- CPU_WriteMem(4 bytes @ 0xE000ED30)  returns 0x01 (0001ms, 145466ms total)
T100C 12835:267 JLINK_ReadReg(R15 (PC))  returns 0x00001444 (0000ms, 145466ms total)
T100C 12835:267 JLINK_GetBPInfo(BPHandle = 2)  returns 0x00 (0000ms, 145466ms total)
T100C 12835:267 JLINK_ClrBPEx(BPHandle = 0x00000002)  returns 0x00 (0000ms, 145466ms total)
T0D60 12835:268 JLINK_ReadReg(R15 (PC))  returns 0x00001444 (0000ms, 145466ms total)
T0D60 12835:268 JLINK_ReadReg(R13 (SP))  returns 0x20000998 (0000ms, 145466ms total)
T09B4 12835:428 JLINK_GetDebugInfo(0x100) -- Value=0x41003003  returns 0x00 (0000ms, 145466ms total)
T09B4 12835:428 JLINK_ReadMemU8(0x41003FF0, 0x0001 Items, ...) -- CPU_ReadMem(1 bytes @ 0x41003FF0) -- Data:  0D  returns 0x01 (0001ms, 145467ms total)
T09B4 12835:429 JLINK_ReadMemU8(0x41003FF4, 0x0001 Items, ...) -- CPU_ReadMem(1 bytes @ 0x41003FF4) -- Data:  10  returns 0x01 (0000ms, 145467ms total)
T09B4 12835:429 JLINK_ReadMemU8(0x41003FF8, 0x0001 Items, ...) -- CPU_ReadMem(1 bytes @ 0x41003FF8) -- Data:  05  returns 0x01 (0001ms, 145468ms total)
T09B4 12835:430 JLINK_ReadMemU8(0x41003FFC, 0x0001 Items, ...) -- CPU_ReadMem(1 bytes @ 0x41003FFC) -- Data:  B1  returns 0x01 (0001ms, 145469ms total)
T09B4 12835:431 JLINK_ReadMemU8(0x41003FD0, 0x0001 Items, ...) -- CPU_ReadMem(1 bytes @ 0x41003FD0) -- Data:  00  returns 0x01 (0001ms, 145470ms total)
T09B4 12835:432 JLINK_ReadMemU8(0x41003FD4, 0x0001 Items, ...) -- CPU_ReadMem(1 bytes @ 0x41003FD4) -- Data:  00  returns 0x01 (0001ms, 145471ms total)
T09B4 12835:433 JLINK_ReadMemU8(0x41003FD8, 0x0001 Items, ...) -- CPU_ReadMem(1 bytes @ 0x41003FD8) -- Data:  00  returns 0x01 (0001ms, 145472ms total)
T09B4 12835:434 JLINK_ReadMemU8(0x41003FDC, 0x0001 Items, ...) -- CPU_ReadMem(1 bytes @ 0x41003FDC) -- Data:  00  returns 0x01 (0001ms, 145473ms total)
T09B4 12835:435 JLINK_ReadMemU8(0x41003FE0, 0x0001 Items, ...) -- CPU_ReadMem(1 bytes @ 0x41003FE0) -- Data:  D0  returns 0x01 (0001ms, 145474ms total)
T09B4 12835:436 JLINK_ReadMemU8(0x41003FE4, 0x0001 Items, ...) -- CPU_ReadMem(1 bytes @ 0x41003FE4) -- Data:  FC  returns 0x01 (0001ms, 145475ms total)
T09B4 12835:437 JLINK_ReadMemU8(0x41003FE8, 0x0001 Items, ...) -- CPU_ReadMem(1 bytes @ 0x41003FE8) -- Data:  09  returns 0x01 (0001ms, 145476ms total)
T09B4 12835:438 JLINK_ReadMemU8(0x41003FEC, 0x0001 Items, ...) -- CPU_ReadMem(1 bytes @ 0x41003FEC) -- Data:  00  returns 0x01 (0001ms, 145477ms total)
T09B4 12835:439 JLINK_ReadMemU32(0x41003000, 0x0001 Items, ...) -- CPU_ReadMem(4 bytes @ 0x41003000) -- Data:  03 C0 0F 9F  returns 0x01 (0001ms, 145478ms total)
T09B4 12835:440 JLINK_ReadMemU8(0xE00FFFF0, 0x0001 Items, ...) -- CPU_ReadMem(1 bytes @ 0xE00FFFF0) -- Data:  00  returns 0x01 (0001ms, 145479ms total)
T09B4 12835:441 JLINK_ReadMemU8(0xE00FFFF4, 0x0001 Items, ...) -- CPU_ReadMem(1 bytes @ 0xE00FFFF4) -- Data:  00  returns 0x01 (0000ms, 145479ms total)
T09B4 12835:441 JLINK_ReadMemU8(0xE00FFFF8, 0x0001 Items, ...) -- CPU_ReadMem(1 bytes @ 0xE00FFFF8) -- Data:  00  returns 0x01 (0001ms, 145480ms total)
T09B4 12835:442 JLINK_ReadMemU8(0xE00FFFFC, 0x0001 Items, ...) -- CPU_ReadMem(1 bytes @ 0xE00FFFFC) -- Data:  00  returns 0x01 (0001ms, 145481ms total)
T09B4 12835:443 JLINK_ReadMemU8(0xE00FFFD0, 0x0001 Items, ...) -- CPU_ReadMem(1 bytes @ 0xE00FFFD0) -- Data:  00  returns 0x01 (0001ms, 145482ms total)
T09B4 12835:444 JLINK_ReadMemU8(0xE00FFFD4, 0x0001 Items, ...) -- CPU_ReadMem(1 bytes @ 0xE00FFFD4) -- Data:  00  returns 0x01 (0001ms, 145483ms total)
T09B4 12835:445 JLINK_ReadMemU8(0xE00FFFD8, 0x0001 Items, ...) -- CPU_ReadMem(1 bytes @ 0xE00FFFD8) -- Data:  00  returns 0x01 (0001ms, 145484ms total)
T09B4 12835:446 JLINK_ReadMemU8(0xE00FFFDC, 0x0001 Items, ...) -- CPU_ReadMem(1 bytes @ 0xE00FFFDC) -- Data:  00  returns 0x01 (0001ms, 145485ms total)
T09B4 12835:447 JLINK_ReadMemU8(0xE00FFFE0, 0x0001 Items, ...) -- CPU_ReadMem(1 bytes @ 0xE00FFFE0) -- Data:  00  returns 0x01 (0001ms, 145486ms total)
T09B4 12835:448 JLINK_ReadMemU8(0xE00FFFE4, 0x0001 Items, ...) -- CPU_ReadMem(1 bytes @ 0xE00FFFE4) -- Data:  00  returns 0x01 (0001ms, 145487ms total)
T09B4 12835:449 JLINK_ReadMemU8(0xE00FFFE8, 0x0001 Items, ...) -- CPU_ReadMem(1 bytes @ 0xE00FFFE8) -- Data:  00  returns 0x01 (0001ms, 145488ms total)
T09B4 12835:450 JLINK_ReadMemU8(0xE00FFFEC, 0x0001 Items, ...) -- CPU_ReadMem(1 bytes @ 0xE00FFFEC) -- Data:  00  returns 0x01 (0000ms, 145488ms total)
T09B4 12835:450 JLINK_ReadMemU32(0x41003004, 0x0001 Items, ...) -- CPU_ReadMem(4 bytes @ 0x41003004) -- Data:  00 00 00 00  returns 0x01 (0001ms, 145489ms total)
T09B4 12835:451 JLINK_GetDebugInfo(0x100) -- Value=0x41003003  returns 0x00 (0000ms, 145489ms total)
T09B4 12835:451 JLINK_ReadMemU8(0x41003FF0, 0x0001 Items, ...) -- CPU_ReadMem(1 bytes @ 0x41003FF0) -- Data:  0D  returns 0x01 (0001ms, 145490ms total)
T09B4 12835:452 JLINK_ReadMemU8(0x41003FF4, 0x0001 Items, ...) -- CPU_ReadMem(1 bytes @ 0x41003FF4) -- Data:  10  returns 0x01 (0000ms, 145490ms total)
T09B4 12835:452 JLINK_ReadMemU8(0x41003FF8, 0x0001 Items, ...) -- CPU_ReadMem(1 bytes @ 0x41003FF8) -- Data:  05  returns 0x01 (0001ms, 145491ms total)
T09B4 12835:453 JLINK_ReadMemU8(0x41003FFC, 0x0001 Items, ...) -- CPU_ReadMem(1 bytes @ 0x41003FFC) -- Data:  B1  returns 0x01 (0001ms, 145492ms total)
T09B4 12835:454 JLINK_ReadMemU8(0x41003FD0, 0x0001 Items, ...) -- CPU_ReadMem(1 bytes @ 0x41003FD0) -- Data:  00  returns 0x01 (0001ms, 145493ms total)
T09B4 12835:455 JLINK_ReadMemU8(0x41003FD4, 0x0001 Items, ...) -- CPU_ReadMem(1 bytes @ 0x41003FD4) -- Data:  00  returns 0x01 (0001ms, 145494ms total)
T09B4 12835:456 JLINK_ReadMemU8(0x41003FD8, 0x0001 Items, ...) -- CPU_ReadMem(1 bytes @ 0x41003FD8) -- Data:  00  returns 0x01 (0001ms, 145495ms total)
T09B4 12835:457 JLINK_ReadMemU8(0x41003FDC, 0x0001 Items, ...) -- CPU_ReadMem(1 bytes @ 0x41003FDC) -- Data:  00  returns 0x01 (0001ms, 145496ms total)
T09B4 12835:458 JLINK_ReadMemU8(0x41003FE0, 0x0001 Items, ...) -- CPU_ReadMem(1 bytes @ 0x41003FE0) -- Data:  D0  returns 0x01 (0001ms, 145497ms total)
T09B4 12835:459 JLINK_ReadMemU8(0x41003FE4, 0x0001 Items, ...) -- CPU_ReadMem(1 bytes @ 0x41003FE4) -- Data:  FC  returns 0x01 (0001ms, 145498ms total)
T09B4 12835:460 JLINK_ReadMemU8(0x41003FE8, 0x0001 Items, ...) -- CPU_ReadMem(1 bytes @ 0x41003FE8) -- Data:  09  returns 0x01 (0000ms, 145498ms total)
T09B4 12835:461 JLINK_ReadMemU8(0x41003FEC, 0x0001 Items, ...) -- CPU_ReadMem(1 bytes @ 0x41003FEC) -- Data:  00  returns 0x01 (0000ms, 145499ms total)
T09B4 12835:461 JLINK_ReadMemU32(0x41003000, 0x0001 Items, ...) -- CPU_ReadMem(4 bytes @ 0x41003000) -- Data:  03 C0 0F 9F  returns 0x01 (0001ms, 145500ms total)
T09B4 12835:462 JLINK_ReadMemU8(0xE00FFFF0, 0x0001 Items, ...) -- CPU_ReadMem(1 bytes @ 0xE00FFFF0) -- Data:  00  returns 0x01 (0001ms, 145501ms total)
T09B4 12835:463 JLINK_ReadMemU8(0xE00FFFF4, 0x0001 Items, ...) -- CPU_ReadMem(1 bytes @ 0xE00FFFF4) -- Data:  00  returns 0x01 (0001ms, 145502ms total)
T09B4 12835:464 JLINK_ReadMemU8(0xE00FFFF8, 0x0001 Items, ...) -- CPU_ReadMem(1 bytes @ 0xE00FFFF8) -- Data:  00  returns 0x01 (0001ms, 145503ms total)
T09B4 12835:465 JLINK_ReadMemU8(0xE00FFFFC, 0x0001 Items, ...) -- CPU_ReadMem(1 bytes @ 0xE00FFFFC) -- Data:  00  returns 0x01 (0001ms, 145504ms total)
T09B4 12835:466 JLINK_ReadMemU8(0xE00FFFD0, 0x0001 Items, ...) -- CPU_ReadMem(1 bytes @ 0xE00FFFD0) -- Data:  00  returns 0x01 (0001ms, 145505ms total)
T09B4 12835:467 JLINK_ReadMemU8(0xE00FFFD4, 0x0001 Items, ...) -- CPU_ReadMem(1 bytes @ 0xE00FFFD4) -- Data:  00  returns 0x01 (0001ms, 145506ms total)
T09B4 12835:468 JLINK_ReadMemU8(0xE00FFFD8, 0x0001 Items, ...) -- CPU_ReadMem(1 bytes @ 0xE00FFFD8) -- Data:  00  returns 0x01 (0001ms, 145507ms total)
T09B4 12835:469 JLINK_ReadMemU8(0xE00FFFDC, 0x0001 Items, ...) -- CPU_ReadMem(1 bytes @ 0xE00FFFDC) -- Data:  00  returns 0x01 (0001ms, 145508ms total)
T09B4 12835:470 JLINK_ReadMemU8(0xE00FFFE0, 0x0001 Items, ...) -- CPU_ReadMem(1 bytes @ 0xE00FFFE0) -- Data:  00  returns 0x01 (0001ms, 145509ms total)
T09B4 12835:471 JLINK_ReadMemU8(0xE00FFFE4, 0x0001 Items, ...) -- CPU_ReadMem(1 bytes @ 0xE00FFFE4) -- Data:  00  returns 0x01 (0001ms, 145510ms total)
T09B4 12835:472 JLINK_ReadMemU8(0xE00FFFE8, 0x0001 Items, ...) -- CPU_ReadMem(1 bytes @ 0xE00FFFE8) -- Data:  00  returns 0x01 (0000ms, 145510ms total)
T09B4 12835:472 JLINK_ReadMemU8(0xE00FFFEC, 0x0001 Items, ...) -- CPU_ReadMem(1 bytes @ 0xE00FFFEC) -- Data:  00  returns 0x01 (0001ms, 145511ms total)
T09B4 12835:473 JLINK_ReadMemU32(0x41003004, 0x0001 Items, ...) -- CPU_ReadMem(4 bytes @ 0x41003004) -- Data:  00 00 00 00  returns 0x01 (0001ms, 145512ms total)
T09B4 12835:474 JLINK_GetDebugInfo(0x100) -- Value=0x41003003  returns 0x00 (0001ms, 145513ms total)
T09B4 12835:475 JLINK_ReadMemU8(0x41003FF0, 0x0001 Items, ...) -- CPU_ReadMem(1 bytes @ 0x41003FF0) -- Data:  0D  returns 0x01 (0000ms, 145513ms total)
T09B4 12835:475 JLINK_ReadMemU8(0x41003FF4, 0x0001 Items, ...) -- CPU_ReadMem(1 bytes @ 0x41003FF4) -- Data:  10  returns 0x01 (0001ms, 145514ms total)
T09B4 12835:476 JLINK_ReadMemU8(0x41003FF8, 0x0001 Items, ...) -- CPU_ReadMem(1 bytes @ 0x41003FF8) -- Data:  05  returns 0x01 (0001ms, 145515ms total)
T09B4 12835:477 JLINK_ReadMemU8(0x41003FFC, 0x0001 Items, ...) -- CPU_ReadMem(1 bytes @ 0x41003FFC) -- Data:  B1  returns 0x01 (0001ms, 145516ms total)
T09B4 12835:478 JLINK_ReadMemU8(0x41003FD0, 0x0001 Items, ...) -- CPU_ReadMem(1 bytes @ 0x41003FD0) -- Data:  00  returns 0x01 (0002ms, 145518ms total)
T09B4 12835:480 JLINK_ReadMemU8(0x41003FD4, 0x0001 Items, ...) -- CPU_ReadMem(1 bytes @ 0x41003FD4) -- Data:  00  returns 0x01 (0001ms, 145519ms total)
T09B4 12835:481 JLINK_ReadMemU8(0x41003FD8, 0x0001 Items, ...) -- CPU_ReadMem(1 bytes @ 0x41003FD8) -- Data:  00  returns 0x01 (0001ms, 145520ms total)
T09B4 12835:482 JLINK_ReadMemU8(0x41003FDC, 0x0001 Items, ...) -- CPU_ReadMem(1 bytes @ 0x41003FDC) -- Data:  00  returns 0x01 (0001ms, 145521ms total)
T09B4 12835:483 JLINK_ReadMemU8(0x41003FE0, 0x0001 Items, ...) -- CPU_ReadMem(1 bytes @ 0x41003FE0) -- Data:  D0  returns 0x01 (0001ms, 145522ms total)
T09B4 12835:484 JLINK_ReadMemU8(0x41003FE4, 0x0001 Items, ...) -- CPU_ReadMem(1 bytes @ 0x41003FE4) -- Data:  FC  returns 0x01 (0001ms, 145523ms total)
T09B4 12835:485 JLINK_ReadMemU8(0x41003FE8, 0x0001 Items, ...) -- CPU_ReadMem(1 bytes @ 0x41003FE8) -- Data:  09  returns 0x01 (0001ms, 145524ms total)
T09B4 12835:486 JLINK_ReadMemU8(0x41003FEC, 0x0001 Items, ...) -- CPU_ReadMem(1 bytes @ 0x41003FEC) -- Data:  00  returns 0x01 (0001ms, 145525ms total)
T09B4 12835:487 JLINK_ReadMemU32(0x41003000, 0x0001 Items, ...) -- CPU_ReadMem(4 bytes @ 0x41003000) -- Data:  03 C0 0F 9F  returns 0x01 (0001ms, 145526ms total)
T09B4 12835:488 JLINK_ReadMemU8(0xE00FFFF0, 0x0001 Items, ...) -- CPU_ReadMem(1 bytes @ 0xE00FFFF0) -- Data:  00  returns 0x01 (0001ms, 145527ms total)
T09B4 12835:489 JLINK_ReadMemU8(0xE00FFFF4, 0x0001 Items, ...) -- CPU_ReadMem(1 bytes @ 0xE00FFFF4) -- Data:  00  returns 0x01 (0001ms, 145528ms total)
T09B4 12835:490 JLINK_ReadMemU8(0xE00FFFF8, 0x0001 Items, ...) -- CPU_ReadMem(1 bytes @ 0xE00FFFF8) -- Data:  00  returns 0x01 (0001ms, 145529ms total)
T09B4 12835:491 JLINK_ReadMemU8(0xE00FFFFC, 0x0001 Items, ...) -- CPU_ReadMem(1 bytes @ 0xE00FFFFC) -- Data:  00  returns 0x01 (0001ms, 145530ms total)
T09B4 12835:492 JLINK_ReadMemU8(0xE00FFFD0, 0x0001 Items, ...) -- CPU_ReadMem(1 bytes @ 0xE00FFFD0) -- Data:  00  returns 0x01 (0001ms, 145531ms total)
T09B4 12835:493 JLINK_ReadMemU8(0xE00FFFD4, 0x0001 Items, ...) -- CPU_ReadMem(1 bytes @ 0xE00FFFD4) -- Data:  00  returns 0x01 (0001ms, 145532ms total)
T09B4 12835:494 JLINK_ReadMemU8(0xE00FFFD8, 0x0001 Items, ...) -- CPU_ReadMem(1 bytes @ 0xE00FFFD8) -- Data:  00  returns 0x01 (0001ms, 145533ms total)
T09B4 12835:495 JLINK_ReadMemU8(0xE00FFFDC, 0x0001 Items, ...) -- CPU_ReadMem(1 bytes @ 0xE00FFFDC) -- Data:  00  returns 0x01 (0001ms, 145534ms total)
T09B4 12835:496 JLINK_ReadMemU8(0xE00FFFE0, 0x0001 Items, ...) -- CPU_ReadMem(1 bytes @ 0xE00FFFE0) -- Data:  00  returns 0x01 (0001ms, 145535ms total)
T09B4 12835:497 JLINK_ReadMemU8(0xE00FFFE4, 0x0001 Items, ...) -- CPU_ReadMem(1 bytes @ 0xE00FFFE4) -- Data:  00  returns 0x01 (0001ms, 145536ms total)
T09B4 12835:498 JLINK_ReadMemU8(0xE00FFFE8, 0x0001 Items, ...) -- CPU_ReadMem(1 bytes @ 0xE00FFFE8) -- Data:  00  returns 0x01 (0001ms, 145537ms total)
T09B4 12835:499 JLINK_ReadMemU8(0xE00FFFEC, 0x0001 Items, ...) -- CPU_ReadMem(1 bytes @ 0xE00FFFEC) -- Data:  00  returns 0x01 (0001ms, 145538ms total)
T09B4 12835:500 JLINK_ReadMemU32(0x41003004, 0x0001 Items, ...) -- CPU_ReadMem(4 bytes @ 0x41003004) -- Data:  00 00 00 00  returns 0x01 (0001ms, 145539ms total)
T09B4 12835:501 JLINK_GetDebugInfo(0x100) -- Value=0x41003003  returns 0x00 (0000ms, 145539ms total)
T09B4 12835:501 JLINK_ReadMemU8(0x41003FF0, 0x0001 Items, ...) -- CPU_ReadMem(1 bytes @ 0x41003FF0) -- Data:  0D  returns 0x01 (0001ms, 145540ms total)
T09B4 12835:502 JLINK_ReadMemU8(0x41003FF4, 0x0001 Items, ...) -- CPU_ReadMem(1 bytes @ 0x41003FF4) -- Data:  10  returns 0x01 (0000ms, 145540ms total)
T09B4 12835:502 JLINK_ReadMemU8(0x41003FF8, 0x0001 Items, ...) -- CPU_ReadMem(1 bytes @ 0x41003FF8) -- Data:  05  returns 0x01 (0001ms, 145541ms total)
T09B4 12835:503 JLINK_ReadMemU8(0x41003FFC, 0x0001 Items, ...) -- CPU_ReadMem(1 bytes @ 0x41003FFC) -- Data:  B1  returns 0x01 (0001ms, 145542ms total)
T09B4 12835:504 JLINK_ReadMemU8(0x41003FD0, 0x0001 Items, ...) -- CPU_ReadMem(1 bytes @ 0x41003FD0) -- Data:  00  returns 0x01 (0001ms, 145543ms total)
T09B4 12835:505 JLINK_ReadMemU8(0x41003FD4, 0x0001 Items, ...) -- CPU_ReadMem(1 bytes @ 0x41003FD4) -- Data:  00  returns 0x01 (0001ms, 145544ms total)
T09B4 12835:506 JLINK_ReadMemU8(0x41003FD8, 0x0001 Items, ...) -- CPU_ReadMem(1 bytes @ 0x41003FD8) -- Data:  00  returns 0x01 (0001ms, 145545ms total)
T09B4 12835:507 JLINK_ReadMemU8(0x41003FDC, 0x0001 Items, ...) -- CPU_ReadMem(1 bytes @ 0x41003FDC) -- Data:  00  returns 0x01 (0001ms, 145546ms total)
T09B4 12835:508 JLINK_ReadMemU8(0x41003FE0, 0x0001 Items, ...) -- CPU_ReadMem(1 bytes @ 0x41003FE0) -- Data:  D0  returns 0x01 (0001ms, 145547ms total)
T09B4 12835:509 JLINK_ReadMemU8(0x41003FE4, 0x0001 Items, ...) -- CPU_ReadMem(1 bytes @ 0x41003FE4) -- Data:  FC  returns 0x01 (0001ms, 145548ms total)
T09B4 12835:510 JLINK_ReadMemU8(0x41003FE8, 0x0001 Items, ...) -- CPU_ReadMem(1 bytes @ 0x41003FE8) -- Data:  09  returns 0x01 (0001ms, 145549ms total)
